!Murata Part Number: LQP03TN33NJ02
!These Parameters are Measured in Series Mode Connection
!       o--[Z]--o
!Port1              Port2
!       o-------o
!
!Freq. Start=50[MHz] Stop=20[GHz], 401[Steps]
# Hz S RI R 50
!Freq.(Hz) S11(Real) S11(Imag) S21(Real) S21(Imag) S12(Real) S12(Imag) S22(Real) S22(Imag)
5.0E7 0.0348330550548496 0.09784230661658323 0.9651669449451504 -0.09784230661658323 0.9651669449451504 -0.09784230661658323 0.0348330550548496 0.09784230661658323
5.0754570186123446E7 0.03516349719109659 0.09925526653574933 0.9648365028089034 -0.09925526653574931 0.9648365028089034 -0.09925526653574931 0.03516349719109659 0.09925526653574933
5.152052789556263E7 0.03550284884328721 0.10068773014153075 0.964497151156713 -0.10068773014153075 0.964497151156713 -0.10068773014153075 0.03550284884328721 0.10068773014153075
5.229804498202928E7 0.03585135865919531 0.10213993531493804 0.9641486413408047 -0.10213993531493804 0.9641486413408047 -0.10213993531493804 0.03585135865919531 0.10213993531493804
5.308729589274893E7 0.03620928256386462 0.10361212102384447 0.9637907174361353 -0.10361212102384447 0.9637907174361353 -0.10361212102384447 0.03620928256386462 0.10361212102384447
5.388845770760058E7 0.0365768839474778 0.10510452720240514 0.9634231160525221 -0.10510452720240511 0.9634231160525221 -0.10510452720240511 0.0365768839474778 0.10510452720240514
5.470171017884717E7 0.03695443385496389 0.10661739462310978 0.963045566145036 -0.10661739462310978 0.963045566145036 -0.10661739462310978 0.03695443385496389 0.10661739462310978
5.5527235771465644E7 0.037342211177212675 0.10815096476127424 0.9626577888227873 -0.10815096476127421 0.9626577888227873 -0.10815096476127421 0.037342211177212675 0.10815096476127424
5.6365219704085544E7 0.03774050284375838 0.10970547965176902 0.9622594971562416 -0.10970547965176902 0.9622594971562416 -0.10970547965176902 0.03774050284375838 0.10970547965176902
5.721584999054556E7 0.03814960401679097 0.11128118173778342 0.961850395983209 -0.11128118173778342 0.961850395983209 -0.11128118173778342 0.03814960401679097 0.11128118173778342
5.807931748207712E7 0.03856981828634735 0.11287831371141853 0.9614301817136526 -0.11287831371141854 0.9614301817136526 -0.11287831371141854 0.03856981828634735 0.11287831371141853
5.8955815910124585E7 0.03900145786652882 0.114497118345898 0.9609985421334712 -0.114497118345898 0.9609985421334712 -0.114497118345898 0.03900145786652882 0.114497118345898
5.984554192981184E7 0.03944484379258484 0.1161378383191831 0.9605551562074152 -0.1161378383191831 0.9605551562074152 -0.1161378383191831 0.03944484379258484 0.1161378383191831
6.074869516406457E7 0.03990030611869604 0.11780071602877126 0.9600996938813039 -0.11780071602877124 0.9600996938813039 -0.11780071602877124 0.03990030611869604 0.11780071602877126
6.166547824839868E7 0.04036818411628127 0.1194859933974545 0.9596318158837186 -0.1194859933974545 0.9596318158837186 -0.1194859933974545 0.04036818411628127 0.1194859933974545
6.2596096876384385E7 0.040848826472645546 0.12119391166980742 0.9591511735273544 -0.12119391166980742 0.9591511735273544 -0.12119391166980742 0.040848826472645546 0.12119391166980742
6.354075984579668E7 0.04134259148977624 0.12292471119916983 0.9586574085102237 -0.12292471119916983 0.9586574085102237 -0.12292471119916983 0.04134259148977624 0.12292471119916983
6.449967910546205E7 0.041849847283083934 0.1246786312248826 0.9581501527169162 -0.1246786312248826 0.9581501527169162 -0.1246786312248826 0.041849847283083934 0.1246786312248826
6.547306980281226E7 0.04237097197987477 0.12645590963953007 0.9576290280201252 -0.12645590963953005 0.9576290280201252 -0.12645590963953005 0.04237097197987477 0.12645590963953007
6.646115033215589E7 0.042906353917327285 0.1282567827459366 0.9570936460826728 -0.1282567827459366 0.9570936460826728 -0.1282567827459366 0.042906353917327285 0.1282567827459366
6.746414238367817E7 0.04345639183973449 0.1300814850036581 0.9565436081602655 -0.1300814850036581 0.9565436081602655 -0.1300814850036581 0.04345639183973449 0.1300814850036581
6.848227099318038E7 0.04402149509475763 0.13193024876470494 0.9559785049052425 -0.13193024876470494 0.9559785049052425 -0.13193024876470494 0.04402149509475763 0.13193024876470494
6.951576459256999E7 0.04460208382842193 0.13380330399822607 0.9553979161715781 -0.13380330399822607 0.9553979161715781 -0.13380330399822607 0.04460208382842193 0.13380330399822607
7.056485506111258E7 0.045198589178568685 0.13570087800387962 0.9548014108214312 -0.1357008780038796 0.9548014108214312 -0.1357008780038796 0.045198589178568685 0.13570087800387962
7.162977777745734E7 0.0458114534664595 0.13762319511360993 0.9541885465335405 -0.13762319511360996 0.9541885465335405 -0.13762319511360996 0.0458114534664595 0.13762319511360993
7.271077167244768E7 0.04644113038620999 0.13957047638154726 0.95355886961379 -0.13957047638154726 0.95355886961379 -0.13957047638154726 0.04644113038620999 0.13957047638154726
7.380807928272885E7 0.04708808519170885 0.14154293926174147 0.9529119148082911 -0.1415429392617415 0.9529119148082911 -0.1415429392617415 0.04708808519170885 0.14154293926174147
7.492194680516452E7 0.04775279488065716 0.14354079727343957 0.9522472051193428 -0.14354079727343957 0.9522472051193428 -0.14354079727343957 0.04775279488065716 0.14354079727343957
7.60526241520746E7 0.04843574837533962 0.14556425965361325 0.9515642516246606 -0.14556425965361325 0.9515642516246606 -0.14556425965361325 0.04843574837533962 0.14556425965361325
7.720036500730675E7 0.04913744669971418 0.14761353099644178 0.9508625533002857 -0.14761353099644176 0.9508625533002857 -0.14761353099644176 0.04913744669971418 0.14761353099644178
7.836542688315398E7 0.0498584031523822 0.14968881087945704 0.9501415968476178 -0.14968881087945704 0.9501415968476178 -0.14968881087945704 0.0498584031523822 0.14968881087945704
7.954807117813127E7 0.05059914347497228 0.1517902934760539 0.9494008565250277 -0.1517902934760539 0.9494008565250277 -0.1517902934760539 0.05059914347497228 0.1517902934760539
8.074856323562416E7 0.05136020601544469 0.1539181671540778 0.9486397939845554 -0.15391816715407783 0.9486397939845554 -0.15391816715407783 0.05136020601544469 0.1539181671540778
8.196717240342227E7 0.05214214188579152 0.15607261406019846 0.9478578581142086 -0.15607261406019843 0.9478578581142086 -0.15607261406019843 0.05214214188579152 0.15607261406019846
8.320417209415154E7 0.05294551511357909 0.15825380968979028 0.9470544848864209 -0.15825380968979025 0.9470544848864209 -0.15825380968979025 0.05294551511357909 0.15825380968979028
8.445983984661816E7 0.053770902786744575 0.16046192244204113 0.9462290972132554 -0.16046192244204113 0.9462290972132554 -0.16046192244204113 0.053770902786744575 0.16046192244204113
8.573445738807854E7 0.05461889519102801 0.16269711316002441 0.9453811048089722 -0.16269711316002444 0.9453811048089722 -0.16269711316002444 0.05461889519102801 0.16269711316002441
8.702831069744885E7 0.05549009593938517 0.16495953465547825 0.9445099040606146 -0.16495953465547822 0.9445099040606146 -0.16495953465547822 0.05549009593938517 0.16495953465547825
8.834169006946853E7 0.05638512209269146 0.16724933121804753 0.9436148779073086 -0.16724933121804753 0.9436148779073086 -0.16724933121804753 0.05638512209269146 0.16724933121804753
8.96748901798321E7 0.05730460427101183 0.1695666381087633 0.9426953957289882 -0.1695666381087633 0.9426953957289882 -0.1695666381087633 0.05730460427101183 0.1695666381087633
9.1028210151304E7 0.058249186754673964 0.17191158103754745 0.941750813245326 -0.17191158103754745 0.941750813245326 -0.17191158103754745 0.058249186754673964 0.17191158103754745
9.240195362083109E7 0.059219527574343914 0.17428427562455304 0.9407804724256561 -0.17428427562455304 0.9407804724256561 -0.17428427562455304 0.059219527574343914 0.17428427562455304
9.379642880766791E7 0.06021629858926592 0.17668482684517353 0.9397837014107341 -0.17668482684517353 0.9397837014107341 -0.17668482684517353 0.06021629858926592 0.17668482684517353
9.521194858253023E7 0.06124018555278878 0.1791133284585787 0.9387598144472111 -0.1791133284585787 0.9387598144472111 -0.1791133284585787 0.06124018555278878 0.1791133284585787
9.664883053779216E7 0.06229188816426177 0.18156986241966516 0.9377081118357382 -0.18156986241966516 0.9377081118357382 -0.18156986241966516 0.06229188816426177 0.18156986241966516
9.810739705874248E7 0.06337212010634394 0.18405449827433865 0.9366278798936559 -0.18405449827433865 0.9366278798936559 -0.18405449827433865 0.06337212010634394 0.18405449827433865
9.958797539591652E7 0.06448160906673135 0.18656729253808294 0.9355183909332686 -0.18656729253808294 0.9355183909332686 -0.18656729253808294 0.06448160906673135 0.18656729253808294
1.0109089773851961E8 0.06562109674326688 0.1891082880578066 0.934378903256733 -0.1891082880578066 0.934378903256733 -0.1891082880578066 0.06562109674326688 0.1891082880578066
1.0261650128895843E8 0.06679133883135913 0.19167751335700142 0.9332086611686409 -0.1916775133570014 0.9332086611686409 -0.1916775133570014 0.06679133883135913 0.19167751335700142
1.0416512833849736E8 0.0679931049925969 0.19427498196429024 0.932006895007403 -0.1942749819642902 0.932006895007403 -0.1942749819642902 0.0679931049925969 0.19427498196429024
1.0573712634405641E8 0.06922717880341094 0.19690069172549446 0.9307728211965891 -0.19690069172549446 0.9307728211965891 -0.19690069172549446 0.06922717880341094 0.19690069172549446
1.0733284800616828E8 0.07049435768259331 0.19955462409939834 0.9295056423174068 -0.1995546240993983 0.9295056423174068 -0.1995546240993983 0.07049435768259331 0.19955462409939834
1.0895265134811176E8 0.07179545279645465 0.20223674343745054 0.9282045472035454 -0.20223674343745054 0.9282045472035454 -0.20223674343745054 0.07179545279645465 0.20223674343745054
1.1059689979623953E8 0.07313128894036051 0.20494699624769924 0.9268687110596394 -0.20494699624769924 0.9268687110596394 -0.20494699624769924 0.07313128894036051 0.20494699624769924
1.1226596226151802E8 0.07450270439535976 0.20768531044332414 0.9254972956046402 -0.2076853104433241 0.9254972956046402 -0.2076853104433241 0.07450270439535976 0.20768531044332414
1.1396021322229806E8 0.07591055075858492 0.21045159457619678 0.924089449241415 -0.21045159457619678 0.924089449241415 -0.21045159457619678 0.07591055075858492 0.21045159457619678
1.1568003280833441E8 0.07735569274607818 0.2132457370559737 0.922644307253922 -0.21324573705597372 0.922644307253922 -0.21324573705597372 0.07735569274607818 0.2132457370559737
1.1742580688607343E8 0.07883900796667191 0.21606760535530514 0.9211609920333282 -0.2160676053553052 0.9211609920333282 -0.2160676053553052 0.07883900796667191 0.21606760535530514
1.1919792714522783E8 0.08036138666552861 0.21891704520182084 0.9196386133344714 -0.21891704520182087 0.9196386133344714 -0.21891704520182087 0.08036138666552861 0.21891704520182084
1.2099679118665792E8 0.08192373143593032 0.2217938797576441 0.9180762685640695 -0.2217938797576441 0.9180762685640695 -0.2217938797576441 0.08192373143593032 0.2217938797576441
1.2282280261157903E8 0.08352695689788786 0.22469790878726975 0.9164730431021121 -0.22469790878726972 0.9164730431021121 -0.22469790878726972 0.08352695689788786 0.22469790878726975
1.2467637111211549E8 0.0851719893421354 0.22762890781474132 0.9148280106578647 -0.22762890781474127 0.9148280106578647 -0.22762890781474127 0.0851719893421354 0.22762890781474132
1.265579125632208E8 0.0868597663380649 0.23058662727115478 0.9131402336619351 -0.23058662727115484 0.9131402336619351 -0.23058662727115484 0.0868597663380649 0.23058662727115478
1.284678491159853E8 0.0885912363041579 0.23357079163362293 0.9114087636958421 -0.23357079163362288 0.9114087636958421 -0.23357079163362288 0.0885912363041579 0.23357079163362293
1.3040660929235186E8 0.09036735803947478 0.2365810985569348 0.9096326419605252 -0.2365810985569348 0.9096326419605252 -0.2365810985569348 0.09036735803947478 0.2365810985569348
1.3237462808126101E8 0.09218910021477293 0.23961721799925906 0.907810899785227 -0.23961721799925909 0.907810899785227 -0.23961721799925909 0.09218910021477293 0.23961721799925906
1.3437234703624701E8 0.0940574408218416 0.2426787913433465 0.9059425591781586 -0.24267879134334652 0.9059425591781586 -0.24267879134334652 0.0940574408218416 0.2426787913433465
1.364002143745067E8 0.0959733665796656 0.24576543051480568 0.9040266334203344 -0.24576543051480565 0.9040266334203344 -0.24576543051480565 0.0959733665796656 0.24576543051480568
1.3845868507746372E8 0.09793787229606099 0.24887671709914425 0.902062127703939 -0.24887671709914425 0.902062127703939 -0.24887671709914425 0.09793787229606099 0.24887671709914425
1.405482209928499E8 0.09995196018346306 0.2520122014593843 0.9000480398165369 -0.2520122014593843 0.9000480398165369 -0.2520122014593843 0.09995196018346306 0.2520122014593843
1.426692909383278E8 0.10201663912759626 0.25517140185618814 0.8979833608724036 -0.25517140185618814 0.8979833608724036 -0.25517140185618814 0.10201663912759626 0.25517140185618814
1.4482237080667645E8 0.1041329239078071 0.2583538035725481 0.8958670760921928 -0.2583538035725481 0.8958670760921928 -0.2583538035725481 0.1041329239078071 0.2583538035725481
1.4700794367256513E8 0.10630183436791048 0.2615588580452262 0.8936981656320895 -0.26155885804522616 0.8936981656320895 -0.26155885804522616 0.10630183436791048 0.2615588580452262
1.492264999009378E8 0.10852439453646738 0.2647859820052465 0.8914756054635325 -0.2647859820052465 0.8914756054635325 -0.2647859820052465 0.10852439453646738 0.2647859820052465
1.5147853725703382E8 0.11080163169550139 0.26803455662987663 0.8891983683044987 -0.2680345566298767 0.8891983683044987 -0.2680345566298767 0.11080163169550139 0.26803455662987663
1.5376456101806876E8 0.11313457539674789 0.27130392670865006 0.8868654246032522 -0.2713039267086501 0.8868654246032522 -0.2713039267086501 0.11313457539674789 0.27130392670865006
1.5608508408660066E8 0.11552425642464129 0.27459339982611297 0.884475743575359 -0.274593399826113 0.884475743575359 -0.274593399826113 0.11552425642464129 0.27459339982611297
1.5844062710560706E8 0.11797170570535179 0.27790224556409293 0.8820282942946482 -0.27790224556409293 0.8820282942946482 -0.27790224556409293 0.11797170570535179 0.27790224556409293
1.6083171857529896E8 0.12047795316131517 0.28122969472640796 0.8795220468386848 -0.28122969472640796 0.8795220468386848 -0.28122969472640796 0.12047795316131517 0.28122969472640796
1.632588949716973E8 0.12304402651083003 0.28457493858904764 0.87695597348917 -0.28457493858904764 0.87695597348917 -0.28457493858904764 0.12304402651083003 0.28457493858904764
1.6572270086699936E8 0.12567095001244816 0.2879371281789679 0.8743290499875519 -0.28793712817896794 0.8743290499875519 -0.28793712817896794 0.12567095001244816 0.2879371281789679
1.6822368905176118E8 0.1283597431540379 0.29131537358474147 0.871640256845962 -0.29131537358474147 0.871640256845962 -0.29131537358474147 0.1283597431540379 0.29131537358474147
1.7076242065892437E8 0.13111141928657466 0.29470874330240915 0.8688885807134251 -0.29470874330240915 0.8688885807134251 -0.29470874330240915 0.13111141928657466 0.29470874330240915
1.7333946528971428E8 0.1339269842028883 0.29811626361995913 0.8660730157971119 -0.29811626361995913 0.8660730157971119 -0.29811626361995913 0.1339269842028883 0.29811626361995913
1.7595540114143828E8 0.13680743466179138 0.3015369180439478 0.8631925653382087 -0.3015369180439478 0.8631925653382087 -0.3015369180439478 0.13680743466179138 0.3015369180439478
1.786108151372127E8 0.13975375685821512 0.30496964677184574 0.8602462431417848 -0.30496964677184574 0.8602462431417848 -0.30496964677184574 0.13975375685821512 0.30496964677184574
1.8130630305764765E8 0.14276692484018766 0.30841334621375044 0.8572330751598125 -0.30841334621375044 0.8572330751598125 -0.30841334621375044 0.14276692484018766 0.30841334621375044
1.840424696745189E8 0.1458478988737153 0.3118668685671585 0.8541521011262846 -0.3118668685671585 0.8541521011262846 -0.3118668685671585 0.1458478988737153 0.3118668685671585
1.8681992888645732E8 0.14899762375685718 0.31532902144852754 0.8510023762431427 -0.3153290214485275 0.8510023762431427 -0.3153290214485275 0.14899762375685718 0.31532902144852754
1.8963930385668582E8 0.15221702708452114 0.3187985675853749 0.847782972915479 -0.3187985675853749 0.847782972915479 -0.3187985675853749 0.15221702708452114 0.3187985675853749
1.92501227152835E8 0.1555070174657587 0.3222742245726741 0.8444929825342412 -0.3222742245726741 0.8444929825342412 -0.3222742245726741 0.1555070174657587 0.3222742245726741
1.9540634088886917E8 0.15886848269559087 0.3257546646972981 0.8411315173044092 -0.3257546646972981 0.8411315173044092 -0.3257546646972981 0.15886848269559087 0.3257546646972981
1.983552968691535E8 0.16230228788365172 0.32923851483423167 0.8376977121163482 -0.3292385148342317 0.8376977121163482 -0.3292385148342317 0.16230228788365172 0.32923851483423167
2.0134875673469606E8 0.16580927354220937 0.3327243564182381 0.8341907264577906 -0.3327243564182381 0.8341907264577906 -0.3327243564182381 0.16580927354220937 0.3327243564182381
2.0438739211159652E8 0.16939025363638466 0.3362107254945989 0.8306097463636153 -0.3362107254945989 0.8306097463636153 -0.3362107254945989 0.16939025363638466 0.3362107254945989
2.074718847617352E8 0.17304601359966212 0.33969611285246715 0.8269539864003378 -0.3396961128524671 0.8269539864003378 -0.3396961128524671 0.17304601359966212 0.33969611285246715
2.106029267357361E8 0.17677730831805924 0.3431789642442779 0.8232226916819408 -0.3431789642442779 0.8232226916819408 -0.3431789642442779 0.17677730831805924 0.3431789642442779
2.1378122052823865E8 0.180584860086587 0.346657680694532 0.819415139913413 -0.346657680694532 0.819415139913413 -0.346657680694532 0.180584860086587 0.346657680694532
2.1700747923551247E8 0.18446935654191018 0.35013061890113917 0.8155306434580899 -0.35013061890113917 0.8155306434580899 -0.35013061890113917 0.18446935654191018 0.35013061890113917
2.2028242671545094E8 0.18843144857537167 0.35359609173233336 0.8115685514246284 -0.35359609173233336 0.8115685514246284 -0.35359609173233336 0.18843144857537167 0.35359609173233336
2.23606797749979E8 0.19247174823081084 0.35705236882200025 0.8075282517691891 -0.3570523688220003 0.8075282517691891 -0.3570523688220003 0.19247174823081084 0.35705236882200025
2.2698133820991236E8 0.19659082659185692 0.3604976772660483 0.8034091734081431 -0.3604976772660483 0.8034091734081431 -0.3604976772660483 0.19659082659185692 0.3604976772660483
2.3040680522230446E8 0.20078921166361696 0.36393020242223023 0.799210788336383 -0.36393020242223023 0.799210788336383 -0.36393020242223023 0.20078921166361696 0.36393020242223023
2.338839673403185E8 0.20506738625391513 0.36734808881558034 0.7949326137460848 -0.36734808881558034 0.7949326137460848 -0.36734808881558034 0.20506738625391513 0.36734808881558034
2.37413604715664E8 0.20942578585945715 0.37074944115136427 0.7905742141405427 -0.37074944115136427 0.7905742141405427 -0.37074944115136427 0.20942578585945715 0.37074944115136427
2.4099650927363476E8 0.21386479656249882 0.3741323254371572 0.7861352034375011 -0.3741323254371571 0.7861352034375011 -0.3741323254371571 0.21386479656249882 0.3741323254371572
2.446334848907889E8 0.21838475294378729 0.3774947702153615 0.7816152470562128 -0.3774947702153615 0.7816152470562128 -0.3774947702153615 0.21838475294378729 0.3774947702153615
2.4832534757531032E8 0.222985936017715 0.3808347679071571 0.777014063982285 -0.3808347679071571 0.777014063982285 -0.3808347679071571 0.222985936017715 0.3808347679071571
2.5207292565009177E8 0.2276685711957776 0.38415027626853954 0.7723314288042223 -0.38415027626853954 0.7723314288042223 -0.38415027626853954 0.2276685711957776 0.38415027626853954
