! LSQNB160808T470     S-PARAMETER MODEL  ( General Type )
!--------------------------------------------------------------------------------------------------------
! Model Generated by TAIYO YUDEN Corporation (http://www.ty-top.com)
! Version 2.0
! TAIYO YUDEN Control No. 100810NF25SB-FKC
! Copyright(c) 2007 TAIYO YUDEN CO.,LTD. All Rights Reserved.
!--------------------------------------------------------------------------------------------------------
!
! Product Description (link to TY-COMPAS)
! https://ds.yuden.co.jp/TYCOMPAS/or/detail?pn=LSQNB160808T470K&u=M
!
! Products Name : Inductors
!
! Characteristics :
!     Inductance : 47 uH , SRF(min) : 11 MHz , DC Resistance(max) : 3.25 Ohm
!     Rated Current : Saturation :50 mA , Temp Rise : 140 mA (40 degC)
!     Case Size : 1.6 x 0.8 / 0.063 x 0.031 [mm/inch] , Thickness : 0.8 / 0.031 [mm/inch]
!     (Conditions: Temperature = 25 degC , DC Bias Current/Voltage = 0A / 0V)
!
! External Node Assignments :
!
!  1  o---GGG---o  2
!
! GND o---------o GND
!
!--------------------------------------------------------------------------------------------------------
! Frequency Range : 0.1MHz  -  324.04089MHz   [ 402 STEP ]
# MHz S RI R 50
! Freq[MHz].  S11 Real    S11 Imag      S21 Real    S21 Imag      S12 Real    S12 Imag      S22 Real    S22 Imag
           0  0.024390244            0  0.975609756            0  0.975609756            0  0.024390244            0
    0.100000  0.145834019  0.283993454  0.854165981 -0.283993454  0.854165981 -0.283993454  0.145834019  0.283993454
    0.102041  0.149718497  0.287840982  0.850281503 -0.287840982  0.850281503 -0.287840982  0.149718497  0.287840982
    0.104125  0.153695657  0.291687123  0.846304343 -0.291687123  0.846304343 -0.291687123  0.153695657  0.291687123
    0.106250  0.157766044  0.295529701  0.842233956 -0.295529701  0.842233956 -0.295529701  0.157766044  0.295529701
    0.108419  0.161930134  0.299366507  0.838069866 -0.299366507  0.838069866 -0.299366507  0.161930134  0.299366507
    0.110632  0.166188330  0.303195305  0.833811670 -0.303195305  0.833811670 -0.303195305  0.166188330  0.303195305
    0.112891  0.170540961  0.307013836  0.829459039 -0.307013836  0.829459039 -0.307013836  0.170540961  0.307013836
    0.115195  0.174988283  0.310819815  0.825011717 -0.310819815  0.825011717 -0.310819815  0.174988283  0.310819815
    0.117547  0.179530478  0.314610943  0.820469522 -0.314610943  0.820469522 -0.314610943  0.179530478  0.314610943
    0.119947  0.184167655  0.318384905  0.815832345 -0.318384905  0.815832345 -0.318384905  0.184167655  0.318384905
    0.122395  0.188899848  0.322139373  0.811100152 -0.322139373  0.811100152 -0.322139373  0.188899848  0.322139373
    0.124894  0.193727022  0.325872013  0.806272978 -0.325872013  0.806272978 -0.325872013  0.193727022  0.325872013
    0.127444  0.198649069  0.329580482  0.801350931 -0.329580482  0.801350931 -0.329580482  0.198649069  0.329580482
    0.130045  0.203665809  0.333262438  0.796334191 -0.333262438  0.796334191 -0.333262438  0.203665809  0.333262438
    0.132700  0.208776997  0.336915534  0.791223003 -0.336915534  0.791223003 -0.336915534  0.208776997  0.336915534
    0.135409  0.213982319  0.340537427  0.786017681 -0.340537427  0.786017681 -0.340537427  0.213982319  0.340537427
    0.138173  0.219281396  0.344125775  0.780718604 -0.344125775  0.780718604 -0.344125775  0.219281396  0.344125775
    0.140994  0.224673784  0.347678242  0.775326216 -0.347678242  0.775326216 -0.347678242  0.224673784  0.347678242
    0.143872  0.230158979  0.351192499  0.769841021 -0.351192499  0.769841021 -0.351192499  0.230158979  0.351192499
    0.146809  0.235736416  0.354666221  0.764263584 -0.354666221  0.764263584 -0.354666221  0.235736416  0.354666221
    0.149806  0.241405473  0.358097091  0.758594527 -0.358097091  0.758594527 -0.358097091  0.241405473  0.358097091
    0.152864  0.247165469  0.361482801  0.752834531 -0.361482801  0.752834531 -0.361482801  0.247165469  0.361482801
    0.155985  0.253015670  0.364821049  0.746984330 -0.364821049  0.746984330 -0.364821049  0.253015670  0.364821049
    0.159169  0.258955288  0.368109540  0.741044712 -0.368109540  0.741044712 -0.368109540  0.258955288  0.368109540
    0.162419  0.264983482  0.371345986  0.735016518 -0.371345986  0.735016518 -0.371345986  0.264983482  0.371345986
    0.165734  0.271099359  0.374528103  0.728900641 -0.374528103  0.728900641 -0.374528103  0.271099359  0.374528103
    0.169118  0.277301977  0.377653613  0.722698023 -0.377653613  0.722698023 -0.377653613  0.277301977  0.377653613
    0.172570  0.283590341  0.380720241  0.716409659 -0.380720241  0.716409659 -0.380720241  0.283590341  0.380720241
    0.176093  0.289963405  0.383725712  0.710036595 -0.383725712  0.710036595 -0.383725712  0.289963405  0.383725712
    0.179688  0.296420073  0.386667753  0.703579927 -0.386667753  0.703579927 -0.386667753  0.296420073  0.386667753
    0.183356  0.302959194  0.389544088  0.697040806 -0.389544088  0.697040806 -0.389544088  0.302959194  0.389544088
    0.187099  0.309579566  0.392352440  0.690420434 -0.392352440  0.690420434 -0.392352440  0.309579566  0.392352440
    0.190918  0.316279928  0.395090525  0.683720072 -0.395090525  0.683720072 -0.395090525  0.316279928  0.395090525
    0.194816  0.323058962  0.397756058  0.676941038 -0.397756058  0.676941038 -0.397756058  0.323058962  0.397756058
    0.198793  0.329915289  0.400346744  0.670084711 -0.400346744  0.670084711 -0.400346744  0.329915289  0.400346744
    0.202851  0.336847466  0.402860282  0.663152534 -0.402860282  0.663152534 -0.402860282  0.336847466  0.402860282
    0.206992  0.343853982  0.405294365  0.656146018 -0.405294365  0.656146018 -0.405294365  0.343853982  0.405294365
    0.211218  0.350933252  0.407646678  0.649066748 -0.407646678  0.649066748 -0.407646678  0.350933252  0.407646678
    0.215530  0.358083619  0.409914900  0.641916381 -0.409914900  0.641916381 -0.409914900  0.358083619  0.409914900
    0.219929  0.365303342  0.412096703  0.634696658 -0.412096703  0.634696658 -0.412096703  0.365303342  0.412096703
    0.224419  0.372590596  0.414189758  0.627409404 -0.414189758  0.627409404 -0.414189758  0.372590596  0.414189758
    0.229001  0.379943466  0.416191732  0.620056534 -0.416191732  0.620056534 -0.416191732  0.379943466  0.416191732
    0.233675  0.387359940  0.418100297  0.612640060 -0.418100297  0.612640060 -0.418100297  0.387359940  0.418100297
    0.238446  0.394837909  0.419913128  0.605162091 -0.419913128  0.605162091 -0.419913128  0.394837909  0.419913128
    0.243313  0.402375156  0.421627912  0.597624844 -0.421627912  0.597624844 -0.421627912  0.402375156  0.421627912
    0.248280  0.409969357  0.423242347  0.590030643 -0.423242347  0.590030643 -0.423242347  0.409969357  0.423242347
    0.253349  0.417618072  0.424754158  0.582381928 -0.424754158  0.582381928 -0.424754158  0.417618072  0.424754158
    0.258521  0.425318742  0.426161092  0.574681258 -0.426161092  0.574681258 -0.426161092  0.425318742  0.426161092
    0.263798  0.433068689  0.427460934  0.566931311 -0.427460934  0.566931311 -0.427460934  0.433068689  0.427460934
    0.269184  0.440865109  0.428651511  0.559134891 -0.428651511  0.559134891 -0.428651511  0.440865109  0.428651511
    0.274679  0.448705069  0.429730700  0.551294931 -0.429730700  0.551294931 -0.429730700  0.448705069  0.429730700
    0.280286  0.456585509  0.430696439  0.543414491 -0.430696439  0.543414491 -0.430696439  0.456585509  0.430696439
    0.286008  0.464503236  0.431546735  0.535496764 -0.431546735  0.535496764 -0.431546735  0.464503236  0.431546735
    0.291846  0.472454931  0.432279677  0.527545069 -0.432279677  0.527545069 -0.432279677  0.472454931  0.432279677
    0.297804  0.480437139  0.432893441  0.519562861 -0.432893441  0.519562861 -0.432893441  0.480437139  0.432893441
    0.303884  0.488446282  0.433386305  0.511553718 -0.433386305  0.511553718 -0.433386305  0.488446282  0.433386305
    0.310087  0.496478654  0.433756659  0.503521346 -0.433756659  0.503521346 -0.433756659  0.496478654  0.433756659
    0.316417  0.504530426  0.434003012  0.495469574 -0.434003012  0.495469574 -0.434003012  0.504530426  0.434003012
    0.322877  0.512597653  0.434124009  0.487402347 -0.434124009  0.487402347 -0.434124009  0.512597653  0.434124009
    0.329468  0.520676278  0.434118436  0.479323722 -0.434118436  0.479323722 -0.434118436  0.520676278  0.434118436
    0.336194  0.528762138  0.433985233  0.471237862 -0.433985233  0.471237862 -0.433985233  0.528762138  0.433985233
    0.343057  0.536850973  0.433723503  0.463149027 -0.433723503  0.463149027 -0.433723503  0.536850973  0.433723503
    0.350060  0.544938434  0.433332522  0.455061566 -0.433332522  0.455061566 -0.433332522  0.544938434  0.433332522
    0.357207  0.553020093  0.432811748  0.446979907 -0.432811748  0.446979907 -0.432811748  0.553020093  0.432811748
    0.364499  0.561091453  0.432160826  0.438908547 -0.432160826  0.438908547 -0.432160826  0.561091453  0.432160826
    0.371940  0.569147961  0.431379599  0.430852039 -0.431379599  0.430852039 -0.431379599  0.569147961  0.431379599
    0.379532  0.577185017  0.430468113  0.422814983 -0.430468113  0.422814983 -0.430468113  0.577185017  0.430468113
    0.387280  0.585197990  0.429426624  0.414802010 -0.429426624  0.414802010 -0.429426624  0.585197990  0.429426624
    0.395186  0.593182229  0.428255598  0.406817771 -0.428255598  0.406817771 -0.428255598  0.593182229  0.428255598
    0.403254  0.601133078  0.426955719  0.398866922 -0.426955719  0.398866922 -0.426955719  0.601133078  0.426955719
    0.411486  0.609045890  0.425527889  0.390954110 -0.425527889  0.390954110 -0.425527889  0.609045890  0.425527889
    0.419886  0.616916041  0.423973228  0.383083959 -0.423973228  0.383083959 -0.423973228  0.616916041  0.423973228
    0.428458  0.624738944  0.422293078  0.375261056 -0.422293078  0.375261056 -0.422293078  0.624738944  0.422293078
    0.437204  0.632510066  0.420488995  0.367489934 -0.420488995  0.367489934 -0.420488995  0.632510066  0.420488995
    0.446130  0.640224940  0.418562755  0.359775060 -0.418562755  0.359775060 -0.418562755  0.640224940  0.418562755
    0.455237  0.647879179  0.416516340  0.352120821 -0.416516340  0.352120821 -0.416516340  0.647879179  0.416516340
    0.464530  0.655468492  0.414351942  0.344531508 -0.414351942  0.344531508 -0.414351942  0.655468492  0.414351942
    0.474013  0.662988696  0.412071954  0.337011304 -0.412071954  0.337011304 -0.412071954  0.662988696  0.412071954
    0.483690  0.670435730  0.409678960  0.329564270 -0.409678960  0.329564270 -0.409678960  0.670435730  0.409678960
    0.493564  0.677805666  0.407175732  0.322194334 -0.407175732  0.322194334 -0.407175732  0.677805666  0.407175732
    0.503640  0.685094721  0.404565214  0.314905279 -0.404565214  0.314905279 -0.404565214  0.685094721  0.404565214
    0.513921  0.692299268  0.401850522  0.307700732 -0.401850522  0.307700732 -0.401850522  0.692299268  0.401850522
    0.524412  0.699415846  0.399034925  0.300584154 -0.399034925  0.300584154 -0.399034925  0.699415846  0.399034925
    0.535118  0.706441171  0.396121835  0.293558829 -0.396121835  0.293558829 -0.396121835  0.706441171  0.396121835
    0.546042  0.713372138  0.393114800  0.286627862 -0.393114800  0.286627862 -0.393114800  0.713372138  0.393114800
    0.557189  0.720205836  0.390017485  0.279794164 -0.390017485  0.279794164 -0.390017485  0.720205836  0.390017485
    0.568563  0.726939547  0.386833666  0.273060453 -0.386833666  0.273060453 -0.386833666  0.726939547  0.386833666
    0.580170  0.733570755  0.383567210  0.266429245 -0.383567210  0.266429245 -0.383567210  0.733570755  0.383567210
    0.592014  0.740097151  0.380222066  0.259902849 -0.380222066  0.259902849 -0.380222066  0.740097151  0.380222066
    0.604099  0.746516630  0.376802253  0.253483370 -0.376802253  0.253483370 -0.376802253  0.746516630  0.376802253
    0.616432  0.752827299  0.373311842  0.247172701 -0.373311842  0.247172701 -0.373311842  0.752827299  0.373311842
    0.629016  0.759027474  0.369754946  0.240972526 -0.369754946  0.240972526 -0.369754946  0.759027474  0.369754946
    0.641857  0.765115682  0.366135706  0.234884318 -0.366135706  0.234884318 -0.366135706  0.765115682  0.366135706
    0.654960  0.771090659  0.362458278  0.228909341 -0.362458278  0.228909341 -0.362458278  0.771090659  0.362458278
    0.668330  0.776951346  0.358726821  0.223048654 -0.358726821  0.223048654 -0.358726821  0.776951346  0.358726821
    0.681973  0.782696890  0.354945484  0.217303110 -0.354945484  0.217303110 -0.354945484  0.782696890  0.354945484
    0.695895  0.788326637  0.351118397  0.211673363 -0.351118397  0.211673363 -0.351118397  0.788326637  0.351118397
    0.710102  0.793840130  0.347249656  0.206159870 -0.347249656  0.206159870 -0.347249656  0.793840130  0.347249656
    0.724598  0.799237101  0.343343314  0.200762899 -0.343343314  0.200762899 -0.343343314  0.799237101  0.343343314
    0.739390  0.804517468  0.339403372  0.195482532 -0.339403372  0.195482532 -0.339403372  0.804517468  0.339403372
    0.754484  0.809681327  0.335433768  0.190318673 -0.335433768  0.190318673 -0.335433768  0.809681327  0.335433768
    0.769886  0.814728946  0.331438371  0.185271054 -0.331438371  0.185271054 -0.331438371  0.814728946  0.331438371
    0.785603  0.819660758  0.327420970  0.180339242 -0.327420970  0.180339242 -0.327420970  0.819660758  0.327420970
    0.801640  0.824477351  0.323385266  0.175522649 -0.323385266  0.175522649 -0.323385266  0.824477351  0.323385266
    0.818005  0.829179464  0.319334870  0.170820536 -0.319334870  0.170820536 -0.319334870  0.829179464  0.319334870
    0.834704  0.833767978  0.315273292  0.166232022 -0.315273292  0.166232022 -0.315273292  0.833767978  0.315273292
    0.851744  0.838243904  0.311203937  0.161756096 -0.311203937  0.161756096 -0.311203937  0.838243904  0.311203937
    0.869131  0.842608379  0.307130104  0.157391621 -0.307130104  0.157391621 -0.307130104  0.842608379  0.307130104
    0.886874  0.846862656  0.303054975  0.153137344 -0.303054975  0.153137344 -0.303054975  0.846862656  0.303054975
    0.904979  0.851008095  0.298981620  0.148991905 -0.298981620  0.148991905 -0.298981620  0.851008095  0.298981620
    0.923453  0.855046154  0.294912986  0.144953846 -0.294912986  0.144953846 -0.294912986  0.855046154  0.294912986
    0.942305  0.858978385  0.290851901  0.141021615 -0.290851901  0.141021615 -0.290851901  0.858978385  0.290851901
    0.961541  0.862806418  0.286801069  0.137193582 -0.286801069  0.137193582 -0.286801069  0.862806418  0.286801069
    0.981170  0.866531960  0.282763071  0.133468040 -0.282763071  0.133468040 -0.282763071  0.866531960  0.282763071
    1.001200  0.870156785  0.278740364  0.129843215 -0.278740364  0.129843215 -0.278740364  0.870156785  0.278740364
    1.021639  0.873682723  0.274735278  0.126317277 -0.274735278  0.126317277 -0.274735278  0.873682723  0.274735278
    1.042495  0.877111658  0.270750022  0.122888342 -0.270750022  0.122888342 -0.270750022  0.877111658  0.270750022
    1.063777  0.880445514  0.266786680  0.119554486 -0.266786680  0.119554486 -0.266786680  0.880445514  0.266786680
    1.085493  0.883686257  0.262847215  0.116313743 -0.262847215  0.116313743 -0.262847215  0.883686257  0.262847215
    1.107652  0.886835879  0.258933469  0.113164121 -0.258933469  0.113164121 -0.258933469  0.886835879  0.258933469
    1.130264  0.889896398  0.255047165  0.110103602 -0.255047165  0.110103602 -0.255047165  0.889896398  0.255047165
    1.153338  0.892869849  0.251189910  0.107130151 -0.251189910  0.107130151 -0.251189910  0.892869849  0.251189910
    1.176882  0.895758278  0.247363198  0.104241722 -0.247363198  0.104241722 -0.247363198  0.895758278  0.247363198
    1.200907  0.898563740  0.243568410  0.101436260 -0.243568410  0.101436260 -0.243568410  0.898563740  0.243568410
    1.225423  0.901288288  0.239806821  0.098711712 -0.239806821  0.098711712 -0.239806821  0.901288288  0.239806821
    1.250439  0.903933974  0.236079599  0.096066026 -0.236079599  0.096066026 -0.236079599  0.903933974  0.236079599
    1.275966  0.906502841  0.232387810  0.093497159 -0.232387810  0.093497159 -0.232387810  0.906502841  0.232387810
    1.302013  0.908996920  0.228732422  0.091003080 -0.228732422  0.091003080 -0.228732422  0.908996920  0.228732422
    1.328593  0.911418224  0.225114308  0.088581776 -0.225114308  0.088581776 -0.225114308  0.911418224  0.225114308
    1.355715  0.913768750  0.221534249  0.086231250 -0.221534249  0.086231250 -0.221534249  0.913768750  0.221534249
    1.383391  0.916050467  0.217992939  0.083949533 -0.217992939  0.083949533 -0.217992939  0.916050467  0.217992939
    1.411632  0.918265323  0.214490985  0.081734677 -0.214490985  0.081734677 -0.214490985  0.918265323  0.214490985
    1.440449  0.920415234  0.211028917  0.079584766 -0.211028917  0.079584766 -0.211028917  0.920415234  0.211028917
    1.469855  0.922502084  0.207607187  0.077497916 -0.207607187  0.077497916 -0.207607187  0.922502084  0.207607187
    1.499861  0.924527727  0.204226172  0.075472273 -0.204226172  0.075472273 -0.204226172  0.924527727  0.204226172
    1.530479  0.926493980  0.200886183  0.073506020 -0.200886183  0.073506020 -0.200886183  0.926493980  0.200886183
    1.561723  0.928402621  0.197587463  0.071597379 -0.197587463  0.071597379 -0.197587463  0.928402621  0.197587463
    1.593604  0.930255393  0.194330194  0.069744607 -0.194330194  0.069744607 -0.194330194  0.930255393  0.194330194
    1.626136  0.932053998  0.191114498  0.067946002 -0.191114498  0.067946002 -0.191114498  0.932053998  0.191114498
    1.659333  0.933800096  0.187940444  0.066199904 -0.187940444  0.066199904 -0.187940444  0.933800096  0.187940444
    1.693207  0.935495308  0.184808050  0.064504692 -0.184808050  0.064504692 -0.184808050  0.935495308  0.184808050
    1.727772  0.937141212  0.181717283  0.062858788 -0.181717283  0.062858788 -0.181717283  0.937141212  0.181717283
    1.763043  0.938739343  0.178668068  0.061260657 -0.178668068  0.061260657 -0.178668068  0.938739343  0.178668068
    1.799034  0.940291195  0.175660288  0.059708805 -0.175660288  0.059708805 -0.175660288  0.940291195  0.175660288
    1.835760  0.941798218  0.172693785  0.058201782 -0.172693785  0.058201782 -0.172693785  0.941798218  0.172693785
    1.873236  0.943261820  0.169768369  0.056738180 -0.169768369  0.056738180 -0.169768369  0.943261820  0.169768369
    1.911476  0.944683366  0.166883815  0.055316634 -0.166883815  0.055316634 -0.166883815  0.944683366  0.166883815
    1.950498  0.946064181  0.164039868  0.053935819 -0.164039868  0.053935819 -0.164039868  0.946064181  0.164039868
    1.990316  0.947405547  0.161236246  0.052594453 -0.161236246  0.052594453 -0.161236246  0.947405547  0.161236246
    2.030946  0.948708704  0.158472643  0.051291296 -0.158472643  0.051291296 -0.158472643  0.948708704  0.158472643
    2.072406  0.949974855  0.155748729  0.050025145 -0.155748729  0.050025145 -0.155748729  0.949974855  0.155748729
    2.114713  0.951205160  0.153064155  0.048794840 -0.153064155  0.048794840 -0.153064155  0.951205160  0.153064155
    2.157883  0.952400744  0.150418553  0.047599256 -0.150418553  0.047599256 -0.150418553  0.952400744  0.150418553
    2.201935  0.953562690  0.147811537  0.046437310 -0.147811537  0.046437310 -0.147811537  0.953562690  0.147811537
    2.246885  0.954692047  0.145242711  0.045307953 -0.145242711  0.045307953 -0.145242711  0.954692047  0.145242711
    2.292754  0.955789828  0.142711662  0.044210172 -0.142711662  0.044210172 -0.142711662  0.955789828  0.142711662
    2.339559  0.956857011  0.140217968  0.043142989 -0.140217968  0.043142989 -0.140217968  0.956857011  0.140217968
